T7148 3192:219.136   SEGGER J-Link V9.38a Log File
T7148 3192:219.136   DLL Compiled: Apr 23 2026 11:41:01
T7148 3192:219.136   Logging started @ 2026-05-01 15:59
T7148 3192:219.136   Process: D:\keil MDK\UV4\UV4.exe
T7148 3192:219.136 - 2541786.112ms 
T7148 3192:219.136 JLINK_SetWarnOutHandler(...)
T7148 3192:219.136 - 0.004ms 
T7148 3192:219.136 JLINK_OpenEx(...)
T7148 3192:223.232   Firmware: J-Link ARM V8 compiled Nov 28 2014 13:44:46
T7148 3192:225.280   Firmware: J-Link ARM V8 compiled Nov 28 2014 13:44:46
T7148 3192:228.096   Hardware: V8.00
T7148 3192:228.096   S/N: 17892859
T7148 3192:228.096   OEM: SEGGER
T7148 3192:228.096   Feature(s): RDI,FlashDL,FlashBP,JFlash
T7148 3192:229.632   Bootloader: (FW returned invalid version)
T7148 3192:231.424   TELNET listener socket opened on port 19021
T7148 3192:235.008   WEBSRV WEBSRV_Init(): Starting webserver thread(s)
T7148 3192:235.264   WEBSRV Webserver running on local port 19080
T7148 3192:235.520   Looking for J-Link GUI Server exe at: D:\keil MDK\ARM\Segger\JLinkGUIServer.exe
T7148 3192:235.520   Looking for J-Link GUI Server exe at: C:\Program Files\SEGGER\JLink_V938a\JLinkGUIServer.exe
T7148 3192:235.520   Forking J-Link GUI Server: C:\Program Files\SEGGER\JLink_V938a\JLinkGUIServer.exe
T7148 3192:260.096   J-Link GUI Server info: "J-Link GUI server V9.38a "
T7148 3192:263.424 - 44.290ms returns "O.K."
T7148 3192:264.192 JLINK_GetEmuCaps()
T7148 3192:264.192 - 0.013ms returns 0xB9FF7BBF
T7148 3192:264.192 JLINK_TIF_GetAvailable(...)
T7148 3192:264.192 - 0.319ms 
T7148 3192:264.192 JLINK_SetErrorOutHandler(...)
T7148 3192:264.192 - 0.004ms 
T7148 3192:264.192 JLINK_ExecCommand("ProjectFile = "D:\tempcontroller\firmware\Project\MDK-ARM\JLinkSettings.ini"", ...). 
T7148 3192:278.272 - 13.770ms returns 0x00
T7148 3192:280.832 JLINK_ExecCommand("Device = STM32F103RB", ...). 
T7148 3192:283.392   Device "STM32F103RB" selected.
T7148 3192:283.648 - 2.859ms returns 0x00
T7148 3192:283.648   ERROR: Unknown command
T7148 3192:283.648 JLINK_GetHardwareVersion()
T7148 3192:283.648 - 0.004ms returns 80000
T7148 3192:283.648 JLINK_GetDLLVersion()
T7148 3192:283.648 - 0.004ms returns 93801
T7148 3192:283.648 JLINK_GetOEMString(...)
T7148 3192:283.648 JLINK_GetFirmwareString(...)
T7148 3192:283.648 - 0.004ms 
T7148 3192:290.048 JLINK_GetDLLVersion()
T7148 3192:290.048 - 0.019ms returns 93801
T7148 3192:290.048 JLINK_GetCompileDateTime()
T7148 3192:290.048 - 0.004ms 
T7148 3192:292.608 JLINK_GetFirmwareString(...)
T7148 3192:292.864 - 0.032ms 
T7148 3192:295.168 JLINK_GetHardwareVersion()
T7148 3192:295.168 - 0.017ms returns 80000
T7148 3192:297.216 JLINK_GetSN()
T7148 3192:297.216 - 0.012ms returns 17892859
T7148 3192:299.264 JLINK_GetOEMString(...)
T7148 3192:303.104 JLINK_TIF_Select(JLINKARM_TIF_JTAG)
T7148 3192:305.920 - 2.792ms returns 0x00
T7148 3192:305.920 JLINK_HasError()
T7148 3192:305.920 JLINK_SetSpeed(5000)
T7148 3192:306.432 - 0.571ms 
T7148 3192:306.432 JLINK_GetIdData(pIdData)
T7148 3192:314.112   InitTarget() start
T7148 3192:314.112    J-Link Script File: Executing InitTarget()
T7148 3192:316.928   JTAG selected. Identifying JTAG Chain...
T7148 3192:320.512   TotalIRLen = ?, IRPrint = 0x..000000000000000000000000
T7148 3192:323.072   Error: Scanning JTAG chain failed.
T7148 3192:324.864   Can not attach to CPU. Trying connect under reset.
T7148 3192:379.904   JTAG selected. Identifying JTAG Chain...
T7148 3192:384.000   TotalIRLen = 9, IRPrint = 0x0011
T7148 3192:387.072   JTAG chain detection found 2 devices:
T7148 3192:389.376    #0 Id: 0x3BA00477, IRLen: 04, CoreSight JTAG-DP
T7148 3192:391.680    #1 Id: 0x16410041, IRLen: 05, STM32 Boundary Scan
T7148 3192:393.728   JTAG Chain Identified. Connecting to DAP TAP...
T7148 3192:395.520   Successfully connected to selected DAP TAP.
T7148 3192:401.664   DAP initialized successfully.
T7148 3192:531.968   InitTarget() end - Took 213ms
T7148 3192:536.832   TotalIRLen = 9, IRPrint = 0x0011
T7148 3192:541.696   JTAG chain detection found 2 devices:
T7148 3192:544.768    #0 Id: 0x3BA00477, IRLen: 04, CoreSight JTAG-DP
T7148 3192:546.816    #1 Id: 0x16410041, IRLen: 05, STM32 Boundary Scan
T7148 3192:553.472   Old FW that does not support reading DPIDR via DAP jobs
T7148 3192:562.176   DPv0 detected
T7148 3192:564.224   CoreSight SoC-400 or earlier
T7148 3192:566.272   Scanning AP map to find all available APs
T7148 3192:573.440   AP[1]: Stopped AP scan as end of AP map has been reached
T7148 3192:575.488   AP[0]: AHB-AP (IDR: 0x14770011, ADDR: 0x00000000)
T7148 3192:580.608   Iterating through AP map to find AHB-AP to use
T7148 3192:591.104   AP[0]: Core found
T7148 3192:595.968   AP[0]: AHB-AP ROM base: 0xE00FF000
T7148 3192:602.112   CPUID register: 0x411FC231. Implementer code: 0x41 (ARM)
T7148 3192:604.160   Found Cortex-M3 r1p1, Little endian.
T7148 3192:605.184   -- Max. mem block: 0x00002408
T7148 3192:609.280   CPU_ReadMem(4 bytes @ 0xE000EDF0)
T7148 3192:610.048   CPU_ReadMem(4 bytes @ 0xE0002000)
T7148 3192:612.864   FPUnit: 6 code (BP) slots and 2 literal slots
T7148 3192:612.864   CPU_ReadMem(4 bytes @ 0xE000EDFC)
T7148 3192:613.376   CPU_ReadMem(4 bytes @ 0xE0001000)
T7148 3192:614.144   CPU_WriteMem(4 bytes @ 0xE0001000)
T7148 3192:614.656   CPU_ReadMem(4 bytes @ 0xE000ED88)
T7148 3192:615.424   CPU_WriteMem(4 bytes @ 0xE000ED88)
T7148 3192:615.680   CPU_ReadMem(4 bytes @ 0xE000ED88)
T7148 3192:616.448   CPU_WriteMem(4 bytes @ 0xE000ED88)
T7148 3192:619.264   CoreSight components:
T7148 3192:621.568   ROMTbl[0] @ E00FF000
T7148 3192:621.568   CPU_ReadMem(64 bytes @ 0xE00FF000)
T7148 3192:622.848   CPU_ReadMem(32 bytes @ 0xE000EFE0)
T7148 3192:629.760   [0][0]: E000E000 CID B105E00D PID 001BB000 SCS
T7148 3192:630.016   CPU_ReadMem(32 bytes @ 0xE0001FE0)
T7148 3192:632.832   [0][1]: E0001000 CID B105E00D PID 001BB002 DWT
T7148 3192:632.832   CPU_ReadMem(32 bytes @ 0xE0002FE0)
T7148 3192:635.648   [0][2]: E0002000 CID B105E00D PID 000BB003 FPB
T7148 3192:635.648   CPU_ReadMem(32 bytes @ 0xE0000FE0)
T7148 3192:638.464   [0][3]: E0000000 CID B105E00D PID 001BB001 ITM
T7148 3192:638.464   CPU_ReadMem(32 bytes @ 0xE0040FE0)
T7148 3192:641.280   [0][4]: E0040000 CID B105900D PID 001BB923 TPIU-Lite
T7148 3192:641.280   pIdData->ScanLen=9
T7148 3192:641.280   pIdData->NumDevices=2
T7148 3192:641.280   pIdData->aId[0]=0x3BA00477
T7148 3192:641.280   pIdData->aIrRead[0]=0
T7148 3192:641.280   pIdData->aScanLen[0]=0
T7148 3192:641.280   pIdData->aScanRead[0]=0
T7148 3192:641.280 - 334.849ms 
T7148 3192:641.536 JLINK_JTAG_GetDeviceID(DeviceIndex = 0)
T7148 3192:641.536 - 0.012ms returns 1000342647
T7148 3192:641.536 JLINK_JTAG_GetDeviceInfo(DeviceIndex = 0)
T7148 3192:641.536 - 0.005ms returns 0
T7148 3192:641.536 JLINK_JTAG_GetDeviceID(DeviceIndex = 1)
T7148 3192:641.536 - 0.004ms returns 373358657
T7148 3192:641.536 JLINK_JTAG_GetDeviceInfo(DeviceIndex = 1)
T7148 3192:641.536 - 0.004ms returns 0
T7148 3192:641.536 JLINK_GetDLLVersion()
T7148 3192:641.536 - 0.004ms returns 93801
T7148 3192:641.536 JLINK_CORE_GetFound()
T7148 3192:641.536 - 0.004ms returns 0x30000FF
T7148 3192:641.536 JLINK_GetDebugInfo(0x100 = JLINKARM_ROM_TABLE_ADDR_INDEX)
T7148 3192:641.536   Value=0xE00FF000
T7148 3192:641.536 - 0.011ms returns 0
T7148 3192:643.584 JLINK_GetDebugInfo(0x100 = JLINKARM_ROM_TABLE_ADDR_INDEX)
T7148 3192:643.584   Value=0xE00FF000
T7148 3192:643.584 - 0.018ms returns 0
T7148 3192:643.584 JLINK_GetDebugInfo(0x101 = JLINKARM_DEBUG_INFO_ETM_ADDR_INDEX)
T7148 3192:643.584   Value=0x00000000
T7148 3192:643.584 - 0.010ms returns 0
T7148 3192:643.584 JLINK_ReadMemEx(0xE0041FF0, 0x10 Bytes, Flags = 0x02000004)
T7148 3192:643.584   CPU_ReadMem(16 bytes @ 0xE0041FF0)
T7148 3192:644.352   Data:  00 00 00 00 00 00 00 00 00 00 00 00 00 00 00 00
T7148 3192:644.352 - 0.743ms returns 16 (0x10)
T7148 3192:644.352 JLINK_GetDebugInfo(0x102 = JLINKARM_DEBUG_INFO_MTB_ADDR_INDEX)
T7148 3192:644.352   Value=0x00000000
T7148 3192:644.352 - 0.015ms returns 0
T7148 3192:644.352 JLINK_GetDebugInfo(0x103 = JLINKARM_DEBUG_INFO_TPIU_ADDR_INDEX)
T7148 3192:644.352   Value=0xE0040000
T7148 3192:644.352 - 0.033ms returns 0
T7148 3192:644.352 JLINK_GetDebugInfo(0x104 = JLINKARM_DEBUG_INFO_ITM_ADDR_INDEX)
T7148 3192:644.352   Value=0xE0000000
T7148 3192:644.352 - 0.018ms returns 0
T7148 3192:644.352 JLINK_GetDebugInfo(0x105 = JLINKARM_DEBUG_INFO_DWT_ADDR_INDEX)
T7148 3192:644.608   Value=0xE0001000
T7148 3192:644.608 - 0.020ms returns 0
T7148 3192:644.608 JLINK_GetDebugInfo(0x106 = JLINKARM_DEBUG_INFO_FPB_ADDR_INDEX)
T7148 3192:644.608   Value=0xE0002000
T7148 3192:644.608 - 0.015ms returns 0
T7148 3192:644.608 JLINK_GetDebugInfo(0x107 = JLINKARM_DEBUG_INFO_NVIC_ADDR_INDEX)
T7148 3192:644.608   Value=0xE000E000
T7148 3192:644.608 - 0.017ms returns 0
T7148 3192:644.608 JLINK_GetDebugInfo(0x10C = JLINKARM_DEBUG_INFO_DBG_ADDR_INDEX)
T7148 3192:644.608   Value=0xE000EDF0
T7148 3192:644.608 - 0.026ms returns 0
T7148 3192:644.608 JLINK_GetDebugInfo(0x01 = Unknown)
T7148 3192:644.608   Value=0x00000000
T7148 3192:644.608 - 0.024ms returns 0
T7148 3192:644.608 JLINK_ReadMemU32(0xE000ED00, 0x1 Items)
T7148 3192:644.608   CPU_ReadMem(4 bytes @ 0xE000ED00)
T7148 3192:645.120   Data:  31 C2 1F 41
T7148 3192:645.376   Debug reg: CPUID
T7148 3192:645.376 - 0.683ms returns 1 (0x1)
T7148 3192:645.376 JLINK_GetDebugInfo(0x10F = JLINKARM_DEBUG_INFO_HAS_CORTEX_M_SECURITY_EXT_INDEX)
T7148 3192:645.376   Value=0x00000000
T7148 3192:645.376 - 0.011ms returns 0
T7148 3192:645.376 JLINK_HasError()
T7148 3192:645.376 JLINK_SetResetType(JLINKARM_CM3_RESET_TYPE_NORMAL)
T7148 3192:645.376 - 0.004ms returns JLINKARM_CM3_RESET_TYPE_NORMAL
T7148 3192:645.376 JLINK_Reset()
T7148 3192:645.376   JLINK_GetResetTypeDesc
T7148 3192:645.376   - 0.004ms 
T7148 3192:647.424   Reset type: NORMAL (https://kb.segger.com/J-Link_Reset_Strategies)
T7148 3192:647.424   CPU is running
T7148 3192:647.680   CPU_WriteMem(4 bytes @ 0xE000EDF0)
T7148 3192:648.192   CPU is running
T7148 3192:648.192   CPU_WriteMem(4 bytes @ 0xE000EDFC)
T7148 3192:650.752   Reset: Halt core after reset via DEMCR.VC_CORERESET.
T7148 3192:653.312   Reset: Reset device via AIRCR.SYSRESETREQ.
T7148 3192:653.312   CPU is running
T7148 3192:653.312   CPU_WriteMem(4 bytes @ 0xE000ED0C)
T7148 3192:704.512   CPU_ReadMem(4 bytes @ 0xE000EDF0)
T7148 3192:705.536   CPU_ReadMem(4 bytes @ 0xE000EDF0)
T7148 3192:709.376   CPU_WriteMem(4 bytes @ 0xE000EDFC)
T7148 3192:716.032   CPU_ReadMem(4 bytes @ 0xE000EDF0)
T7148 3192:719.872   CPU_WriteMem(4 bytes @ 0xE000EDFC)
T7148 3192:720.640   CPU_WriteMem(4 bytes @ 0xE0001028)
T7148 3192:721.152   CPU_WriteMem(4 bytes @ 0xE0001038)
T7148 3192:721.920   CPU_WriteMem(4 bytes @ 0xE0001048)
T7148 3192:722.432   CPU_WriteMem(4 bytes @ 0xE0001058)
T7148 3192:722.944   CPU_WriteMem(4 bytes @ 0xE0002000)
T7148 3192:723.712   CPU_ReadMem(4 bytes @ 0xE000EDFC)
T7148 3192:724.224   CPU_ReadMem(4 bytes @ 0xE0001000)
T7148 3192:724.992 - 79.560ms 
T7148 3192:724.992 JLINK_Halt()
T7148 3192:724.992 - 0.020ms returns 0x00
T7148 3192:724.992 JLINK_ReadMemU32(0xE000EDF0, 0x1 Items)
T7148 3192:724.992   CPU_ReadMem(4 bytes @ 0xE000EDF0)
T7148 3192:725.760   Data:  03 00 03 00
T7148 3192:725.760   Debug reg: DHCSR
T7148 3192:725.760 - 0.684ms returns 1 (0x1)
T7148 3192:725.760 JLINK_WriteU32(0xE000EDF0, 0xA05F0003)
T7148 3192:725.760   Debug reg: DHCSR
T7148 3192:726.016   CPU_WriteMem(4 bytes @ 0xE000EDF0)
T7148 3192:726.784 - 0.873ms returns 0 (0x00000000)
T7148 3192:726.784 JLINK_WriteU32(0xE000EDFC, 0x01000000)
T7148 3192:726.784   Debug reg: DEMCR
T7148 3192:726.784   CPU_WriteMem(4 bytes @ 0xE000EDFC)
T7148 3192:727.296 - 0.623ms returns 0 (0x00000000)
T7148 3192:741.120 JLINK_GetHWStatus(...)
T7148 3192:741.376 - 0.401ms returns 0
T7148 3192:747.520 JLINK_GetNumBPUnits(Type = 0xFFFFFF00)
T7148 3192:747.520 - 0.016ms returns 0x06
T7148 3192:747.776 JLINK_GetNumBPUnits(Type = 0xF0)
T7148 3192:747.776 - 0.004ms returns 0x2000
T7148 3192:747.776 JLINK_GetNumWPUnits()
T7148 3192:747.776 - 0.004ms returns 4
T7148 3192:753.664 JLINK_GetSpeed()
T7148 3192:753.664 - 0.024ms returns 4800
T7148 3192:758.784 JLINK_ReadMemU32(0xE000E004, 0x1 Items)
T7148 3192:758.784   CPU_ReadMem(4 bytes @ 0xE000E004)
T7148 3192:759.552   Data:  01 00 00 00
T7148 3192:759.552 - 0.701ms returns 1 (0x1)
T7148 3192:759.552 JLINK_ReadMemU32(0xE000E004, 0x1 Items)
T7148 3192:759.552   CPU_ReadMem(4 bytes @ 0xE000E004)
T7148 3192:760.064   Data:  01 00 00 00
T7148 3192:760.064 - 0.599ms returns 1 (0x1)
T7148 3192:760.064 JLINK_WriteMemEx(0xE0001000, 0x0000001C Bytes, Flags = 0x02000004)
T7148 3192:760.064   Data:  01 00 00 00 00 00 00 00 00 00 00 00 00 00 00 00 ...
T7148 3192:760.064   CPU_WriteMem(28 bytes @ 0xE0001000)
T7148 3192:760.832 - 0.712ms returns 0x1C
T7148 3192:760.832 JLINK_Halt()
T7148 3192:760.832 - 0.004ms returns 0x00
T7148 3192:760.832 JLINK_IsHalted()
T7148 3192:760.832 - 0.005ms returns TRUE
T7148 3192:769.024 JLINK_WriteMem(0x20000000, 0x164 Bytes, ...)
T7148 3192:769.024   Data:  00 BE 0A E0 0D 78 2D 06 68 40 08 24 40 00 00 D3 ...
T7148 3192:769.280   CPU_WriteMem(356 bytes @ 0x20000000)
T7148 3192:772.608 - 3.550ms returns 0x164
T7148 3192:772.608 JLINK_HasError()
T7148 3192:772.608 JLINK_WriteReg(R0, 0x08000000)
T7148 3192:772.608 - 0.016ms returns 0
T7148 3192:772.608 JLINK_WriteReg(R1, 0x00B71B00)
T7148 3192:772.864 - 0.008ms returns 0
T7148 3192:772.864 JLINK_WriteReg(R2, 0x00000001)
T7148 3192:772.864 - 0.008ms returns 0
T7148 3192:772.864 JLINK_WriteReg(R3, 0x00000000)
T7148 3192:772.864 - 0.009ms returns 0
T7148 3192:772.864 JLINK_WriteReg(R4, 0x00000000)
T7148 3192:772.864 - 0.008ms returns 0
T7148 3192:772.864 JLINK_WriteReg(R5, 0x00000000)
T7148 3192:772.864 - 0.008ms returns 0
T7148 3192:772.864 JLINK_WriteReg(R6, 0x00000000)
T7148 3192:772.864 - 0.007ms returns 0
T7148 3192:772.864 JLINK_WriteReg(R7, 0x00000000)
T7148 3192:772.864 - 0.008ms returns 0
T7148 3192:772.864 JLINK_WriteReg(R8, 0x00000000)
T7148 3192:772.864 - 0.008ms returns 0
T7148 3192:772.864 JLINK_WriteReg(R9, 0x20000160)
T7148 3192:772.864 - 0.008ms returns 0
T7148 3192:772.864 JLINK_WriteReg(R10, 0x00000000)
T7148 3192:772.864 - 0.008ms returns 0
T7148 3192:772.864 JLINK_WriteReg(R11, 0x00000000)
T7148 3192:772.864 - 0.007ms returns 0
T7148 3192:772.864 JLINK_WriteReg(R12, 0x00000000)
T7148 3192:772.864 - 0.008ms returns 0
T7148 3192:773.120 JLINK_WriteReg(R13 (SP), 0x20001000)
T7148 3192:773.120 - 0.009ms returns 0
T7148 3192:773.120 JLINK_WriteReg(R14, 0x20000001)
T7148 3192:773.120 - 0.008ms returns 0
T7148 3192:773.120 JLINK_WriteReg(R15 (PC), 0x20000038)
T7148 3192:773.120 - 0.011ms returns 0
T7148 3192:773.120 JLINK_WriteReg(XPSR, 0x01000000)
T7148 3192:773.120 - 0.008ms returns 0
T7148 3192:773.120 JLINK_WriteReg(MSP, 0x20001000)
T7148 3192:773.120 - 0.008ms returns 0
T7148 3192:773.120 JLINK_WriteReg(PSP, 0x20001000)
T7148 3192:773.120 - 0.008ms returns 0
T7148 3192:773.120 JLINK_WriteReg(CFBP, 0x00000000)
T7148 3192:773.120 - 0.008ms returns 0
T7148 3192:773.120 JLINK_SetBPEx(Addr = 0x20000000, Type = 0xFFFFFFF2)
T7148 3192:773.120   CPU_ReadMem(2 bytes @ 0x20000000)
T7148 3192:773.888 - 0.764ms returns 0x00000001
T7148 3192:773.888 JLINK_Go()
T7148 3192:773.888   CPU_WriteMem(2 bytes @ 0x20000000)
T7148 3192:774.400   CPU_ReadMem(4 bytes @ 0xE0001000)
T7148 3192:775.168   CPU_WriteMem(4 bytes @ 0xE0002008)
T7148 3192:775.168   CPU_WriteMem(4 bytes @ 0xE000200C)
T7148 3192:775.168   CPU_WriteMem(4 bytes @ 0xE0002010)
T7148 3192:775.168   CPU_WriteMem(4 bytes @ 0xE0002014)
T7148 3192:775.168   CPU_WriteMem(4 bytes @ 0xE0002018)
T7148 3192:775.168   CPU_WriteMem(4 bytes @ 0xE000201C)
T7148 3192:776.960   CPU_WriteMem(4 bytes @ 0xE0001004)
T7148 3192:782.336   Memory map 'after startup completion point' is active
T7148 3192:782.336 - 8.575ms 
T7148 3192:782.336 JLINK_IsHalted()
T7148 3192:785.408   CPU_ReadMem(2 bytes @ 0x20000000)
T7148 3192:786.432 - 3.874ms returns TRUE
T7148 3192:786.432 JLINK_ReadReg(R15 (PC))
T7148 3192:786.432 - 0.010ms returns 0x20000000
T7148 3192:786.432 JLINK_ClrBPEx(BPHandle = 0x00000001)
T7148 3192:786.432 - 0.047ms returns 0x00
T7148 3192:786.432 JLINK_ReadReg(R0)
T7148 3192:786.432 - 0.004ms returns 0x00000000
T7148 3192:786.688 JLINK_HasError()
T7148 3192:786.688 JLINK_WriteReg(R0, 0x08000000)
T7148 3192:786.688 - 0.005ms returns 0
T7148 3192:786.688 JLINK_WriteReg(R1, 0x00B71B00)
T7148 3192:786.688 - 0.004ms returns 0
T7148 3192:786.688 JLINK_WriteReg(R2, 0x00000001)
T7148 3192:786.688 - 0.004ms returns 0
T7148 3192:786.688 JLINK_WriteReg(R3, 0x00000000)
T7148 3192:786.688 - 0.004ms returns 0
T7148 3192:786.688 JLINK_WriteReg(R4, 0x00000000)
T7148 3192:786.688 - 0.004ms returns 0
T7148 3192:786.688 JLINK_WriteReg(R5, 0x00000000)
T7148 3192:786.688 - 0.004ms returns 0
T7148 3192:786.688 JLINK_WriteReg(R6, 0x00000000)
T7148 3192:786.688 - 0.004ms returns 0
T7148 3192:786.688 JLINK_WriteReg(R7, 0x00000000)
T7148 3192:786.688 - 0.004ms returns 0
T7148 3192:786.688 JLINK_WriteReg(R8, 0x00000000)
T7148 3192:786.688 - 0.004ms returns 0
T7148 3192:786.688 JLINK_WriteReg(R9, 0x20000160)
T7148 3192:786.688 - 0.004ms returns 0
T7148 3192:786.688 JLINK_WriteReg(R10, 0x00000000)
T7148 3192:786.688 - 0.004ms returns 0
T7148 3192:786.688 JLINK_WriteReg(R11, 0x00000000)
T7148 3192:786.688 - 0.004ms returns 0
T7148 3192:786.944 JLINK_WriteReg(R12, 0x00000000)
T7148 3192:786.944 - 0.004ms returns 0
T7148 3192:786.944 JLINK_WriteReg(R13 (SP), 0x20001000)
T7148 3192:786.944 - 0.004ms returns 0
T7148 3192:786.944 JLINK_WriteReg(R14, 0x20000001)
T7148 3192:786.944 - 0.004ms returns 0
T7148 3192:786.944 JLINK_WriteReg(R15 (PC), 0x2000007C)
T7148 3192:786.944 - 0.004ms returns 0
T7148 3192:786.944 JLINK_WriteReg(XPSR, 0x01000000)
T7148 3192:786.944 - 0.004ms returns 0
T7148 3192:786.944 JLINK_WriteReg(MSP, 0x20001000)
T7148 3192:786.944 - 0.004ms returns 0
T7148 3192:786.944 JLINK_WriteReg(PSP, 0x20001000)
T7148 3192:786.944 - 0.004ms returns 0
T7148 3192:786.944 JLINK_WriteReg(CFBP, 0x00000000)
T7148 3192:786.944 - 0.004ms returns 0
T7148 3192:786.944 JLINK_SetBPEx(Addr = 0x20000000, Type = 0xFFFFFFF2)
T7148 3192:786.944 - 0.005ms returns 0x00000002
T7148 3192:786.944 JLINK_Go()
T7148 3192:786.944   CPU_ReadMem(4 bytes @ 0xE0001000)
T7148 3192:790.016 - 3.034ms 
T7148 3192:790.016 JLINK_IsHalted()
T7148 3192:790.528 - 0.554ms returns FALSE
T7148 3192:790.528 JLINK_HasError()
T7148 3192:807.936 JLINK_IsHalted()
T7148 3192:808.448 - 0.596ms returns FALSE
T7148 3192:808.448 JLINK_HasError()
T7148 3192:811.008 JLINK_IsHalted()
T7148 3192:811.264 - 0.494ms returns FALSE
T7148 3192:811.264 JLINK_HasError()
T7148 3192:812.800 JLINK_IsHalted()
T7148 3192:816.128   CPU_ReadMem(2 bytes @ 0x20000000)
T7148 3192:816.896 - 3.966ms returns TRUE
T7148 3192:816.896 JLINK_ReadReg(R15 (PC))
T7148 3192:816.896 - 0.028ms returns 0x20000000
T7148 3192:816.896 JLINK_ClrBPEx(BPHandle = 0x00000002)
T7148 3192:816.896 - 0.008ms returns 0x00
T7148 3192:816.896 JLINK_ReadReg(R0)
T7148 3192:816.896 - 0.008ms returns 0x00000000
T7148 3192:869.120 JLINK_HasError()
T7148 3192:869.376 JLINK_WriteReg(R0, 0x00000001)
T7148 3192:869.376 - 0.011ms returns 0
T7148 3192:869.376 JLINK_WriteReg(R1, 0x00B71B00)
T7148 3192:869.376 - 0.007ms returns 0
T7148 3192:869.376 JLINK_WriteReg(R2, 0x00000001)
T7148 3192:869.376 - 0.007ms returns 0
T7148 3192:869.376 JLINK_WriteReg(R3, 0x00000000)
T7148 3192:869.376 - 0.007ms returns 0
T7148 3192:869.376 JLINK_WriteReg(R4, 0x00000000)
T7148 3192:869.376 - 0.007ms returns 0
T7148 3192:869.376 JLINK_WriteReg(R5, 0x00000000)
T7148 3192:869.376 - 0.007ms returns 0
T7148 3192:869.376 JLINK_WriteReg(R6, 0x00000000)
T7148 3192:869.376 - 0.007ms returns 0
T7148 3192:869.376 JLINK_WriteReg(R7, 0x00000000)
T7148 3192:869.376 - 0.007ms returns 0
T7148 3192:869.376 JLINK_WriteReg(R8, 0x00000000)
T7148 3192:869.376 - 0.007ms returns 0
T7148 3192:869.376 JLINK_WriteReg(R9, 0x20000160)
T7148 3192:869.376 - 0.008ms returns 0
T7148 3192:869.376 JLINK_WriteReg(R10, 0x00000000)
T7148 3192:869.376 - 0.007ms returns 0
T7148 3192:869.376 JLINK_WriteReg(R11, 0x00000000)
T7148 3192:869.376 - 0.018ms returns 0
T7148 3192:869.376 JLINK_WriteReg(R12, 0x00000000)
T7148 3192:869.376 - 0.007ms returns 0
T7148 3192:869.376 JLINK_WriteReg(R13 (SP), 0x20001000)
T7148 3192:869.376 - 0.008ms returns 0
T7148 3192:869.376 JLINK_WriteReg(R14, 0x20000001)
T7148 3192:869.376 - 0.007ms returns 0
T7148 3192:869.376 JLINK_WriteReg(R15 (PC), 0x2000006A)
T7148 3192:869.376 - 0.008ms returns 0
T7148 3192:869.376 JLINK_WriteReg(XPSR, 0x01000000)
T7148 3192:869.376 - 0.007ms returns 0
T7148 3192:869.376 JLINK_WriteReg(MSP, 0x20001000)
T7148 3192:869.376 - 0.007ms returns 0
T7148 3192:869.376 JLINK_WriteReg(PSP, 0x20001000)
T7148 3192:869.376 - 0.007ms returns 0
T7148 3192:869.376 JLINK_WriteReg(CFBP, 0x00000000)
T7148 3192:869.376 - 0.007ms returns 0
T7148 3192:869.376 JLINK_SetBPEx(Addr = 0x20000000, Type = 0xFFFFFFF2)
T7148 3192:869.632 - 0.010ms returns 0x00000003
T7148 3192:869.632 JLINK_Go()
T7148 3192:869.632   CPU_ReadMem(4 bytes @ 0xE0001000)
T7148 3192:872.704 - 3.175ms 
T7148 3192:872.704 JLINK_IsHalted()
T7148 3192:876.032   CPU_ReadMem(2 bytes @ 0x20000000)
T7148 3192:876.544 - 3.826ms returns TRUE
T7148 3192:876.544 JLINK_ReadReg(R15 (PC))
T7148 3192:876.544 - 0.009ms returns 0x20000000
T7148 3192:876.544 JLINK_ClrBPEx(BPHandle = 0x00000003)
T7148 3192:876.544 - 0.008ms returns 0x00
T7148 3192:876.544 JLINK_ReadReg(R0)
T7148 3192:876.544 - 0.008ms returns 0x00000000
T7148 3192:884.992 JLINK_WriteMem(0x20000000, 0x164 Bytes, ...)
T7148 3192:884.992   Data:  00 BE 0A E0 0D 78 2D 06 68 40 08 24 40 00 00 D3 ...
T7148 3192:884.992   CPU_WriteMem(356 bytes @ 0x20000000)
T7148 3192:888.320 - 3.418ms returns 0x164
T7148 3192:888.576 JLINK_HasError()
T7148 3192:888.576 JLINK_WriteReg(R0, 0x08000000)
T7148 3192:888.576 - 0.011ms returns 0
T7148 3192:888.576 JLINK_WriteReg(R1, 0x00B71B00)
T7148 3192:888.576 - 0.008ms returns 0
T7148 3192:888.576 JLINK_WriteReg(R2, 0x00000002)
T7148 3192:888.576 - 0.008ms returns 0
T7148 3192:888.576 JLINK_WriteReg(R3, 0x00000000)
T7148 3192:888.576 - 0.007ms returns 0
T7148 3192:888.576 JLINK_WriteReg(R4, 0x00000000)
T7148 3192:888.576 - 0.007ms returns 0
T7148 3192:888.576 JLINK_WriteReg(R5, 0x00000000)
T7148 3192:888.576 - 0.007ms returns 0
T7148 3192:888.576 JLINK_WriteReg(R6, 0x00000000)
T7148 3192:888.576 - 0.007ms returns 0
T7148 3192:888.576 JLINK_WriteReg(R7, 0x00000000)
T7148 3192:888.832 - 0.007ms returns 0
T7148 3192:888.832 JLINK_WriteReg(R8, 0x00000000)
T7148 3192:888.832 - 0.008ms returns 0
T7148 3192:888.832 JLINK_WriteReg(R9, 0x20000160)
T7148 3192:888.832 - 0.008ms returns 0
T7148 3192:888.832 JLINK_WriteReg(R10, 0x00000000)
T7148 3192:888.832 - 0.008ms returns 0
T7148 3192:888.832 JLINK_WriteReg(R11, 0x00000000)
T7148 3192:888.832 - 0.008ms returns 0
T7148 3192:888.832 JLINK_WriteReg(R12, 0x00000000)
T7148 3192:888.832 - 0.008ms returns 0
T7148 3192:888.832 JLINK_WriteReg(R13 (SP), 0x20001000)
T7148 3192:888.832 - 0.009ms returns 0
T7148 3192:888.832 JLINK_WriteReg(R14, 0x20000001)
T7148 3192:888.832 - 0.008ms returns 0
T7148 3192:888.832 JLINK_WriteReg(R15 (PC), 0x20000038)
T7148 3192:888.832 - 0.008ms returns 0
T7148 3192:888.832 JLINK_WriteReg(XPSR, 0x01000000)
T7148 3192:888.832 - 0.008ms returns 0
T7148 3192:888.832 JLINK_WriteReg(MSP, 0x20001000)
T7148 3192:888.832 - 0.008ms returns 0
T7148 3192:888.832 JLINK_WriteReg(PSP, 0x20001000)
T7148 3192:888.832 - 0.008ms returns 0
T7148 3192:888.832 JLINK_WriteReg(CFBP, 0x00000000)
T7148 3192:888.832 - 0.008ms returns 0
T7148 3192:888.832 JLINK_SetBPEx(Addr = 0x20000000, Type = 0xFFFFFFF2)
T7148 3192:888.832   CPU_ReadMem(2 bytes @ 0x20000000)
T7148 3192:889.600 - 0.654ms returns 0x00000004
T7148 3192:889.600 JLINK_Go()
T7148 3192:889.600   CPU_WriteMem(2 bytes @ 0x20000000)
T7148 3192:890.112   CPU_ReadMem(4 bytes @ 0xE0001000)
T7148 3192:893.696 - 4.046ms 
T7148 3192:893.696 JLINK_IsHalted()
T7148 3192:897.024   CPU_ReadMem(2 bytes @ 0x20000000)
T7148 3192:897.536 - 3.920ms returns TRUE
T7148 3192:897.536 JLINK_ReadReg(R15 (PC))
T7148 3192:897.536 - 0.013ms returns 0x20000000
T7148 3192:897.536 JLINK_ClrBPEx(BPHandle = 0x00000004)
T7148 3192:897.536 - 0.008ms returns 0x00
T7148 3192:897.536 JLINK_ReadReg(R0)
T7148 3192:897.536 - 0.007ms returns 0x00000000
T7148 3192:898.048 JLINK_WriteMem(0x20000164, 0x29C Bytes, ...)
T7148 3192:898.048   Data:  88 30 00 20 75 02 00 08 7D 02 00 08 7F 02 00 08 ...
T7148 3192:898.048   CPU_WriteMem(668 bytes @ 0x20000164)
T7148 3192:903.680 - 5.549ms returns 0x29C
T7148 3192:903.680 JLINK_WriteMem(0x20000400, 0x164 Bytes, ...)
T7148 3192:903.680   Data:  4D 39 00 08 ED 00 00 08 88 2A 00 20 88 30 00 20 ...
T7148 3192:903.680   CPU_WriteMem(356 bytes @ 0x20000400)
T7148 3192:907.264 - 3.662ms returns 0x164
T7148 3192:907.264 JLINK_HasError()
T7148 3192:907.264 JLINK_WriteReg(R0, 0x08000000)
T7148 3192:907.264 - 0.014ms returns 0
T7148 3192:907.264 JLINK_WriteReg(R1, 0x00000400)
T7148 3192:907.264 - 0.012ms returns 0
T7148 3192:907.264 JLINK_WriteReg(R2, 0x20000164)
T7148 3192:907.264 - 0.011ms returns 0
T7148 3192:907.264 JLINK_WriteReg(R3, 0x00000000)
T7148 3192:907.264 - 0.012ms returns 0
T7148 3192:907.264 JLINK_WriteReg(R4, 0x00000000)
T7148 3192:907.520 - 0.012ms returns 0
T7148 3192:907.520 JLINK_WriteReg(R5, 0x00000000)
T7148 3192:907.520 - 0.011ms returns 0
T7148 3192:907.520 JLINK_WriteReg(R6, 0x00000000)
T7148 3192:907.520 - 0.011ms returns 0
T7148 3192:907.520 JLINK_WriteReg(R7, 0x00000000)
T7148 3192:907.520 - 0.012ms returns 0
T7148 3192:907.520 JLINK_WriteReg(R8, 0x00000000)
T7148 3192:907.520 - 0.011ms returns 0
T7148 3192:907.520 JLINK_WriteReg(R9, 0x20000160)
T7148 3192:907.520 - 0.012ms returns 0
T7148 3192:907.520 JLINK_WriteReg(R10, 0x00000000)
T7148 3192:907.520 - 0.011ms returns 0
T7148 3192:907.520 JLINK_WriteReg(R11, 0x00000000)
T7148 3192:907.520 - 0.011ms returns 0
T7148 3192:907.520 JLINK_WriteReg(R12, 0x00000000)
T7148 3192:907.776 - 0.012ms returns 0
T7148 3192:907.776 JLINK_WriteReg(R13 (SP), 0x20001000)
T7148 3192:907.776 - 0.013ms returns 0
T7148 3192:907.776 JLINK_WriteReg(R14, 0x20000001)
T7148 3192:907.776 - 0.011ms returns 0
T7148 3192:907.776 JLINK_WriteReg(R15 (PC), 0x200000F4)
T7148 3192:907.776 - 0.012ms returns 0
T7148 3192:907.776 JLINK_WriteReg(XPSR, 0x01000000)
T7148 3192:907.776 - 0.011ms returns 0
T7148 3192:907.776 JLINK_WriteReg(MSP, 0x20001000)
T7148 3192:907.776 - 0.012ms returns 0
T7148 3192:907.776 JLINK_WriteReg(PSP, 0x20001000)
T7148 3192:907.776 - 0.011ms returns 0
T7148 3192:907.776 JLINK_WriteReg(CFBP, 0x00000000)
T7148 3192:907.776 - 0.012ms returns 0
T7148 3192:907.776 JLINK_SetBPEx(Addr = 0x20000000, Type = 0xFFFFFFF2)
T7148 3192:908.032 - 0.013ms returns 0x00000005
T7148 3192:908.032 JLINK_Go()
T7148 3192:908.032   CPU_ReadMem(4 bytes @ 0xE0001000)
T7148 3192:911.104 - 3.151ms 
T7148 3192:911.104 JLINK_IsHalted()
T7148 3192:911.616 - 0.525ms returns FALSE
T7148 3192:911.616 JLINK_HasError()
T7148 3192:915.456 JLINK_IsHalted()
T7148 3192:915.968 - 0.565ms returns FALSE
T7148 3192:915.968 JLINK_HasError()
T7148 3192:917.504 JLINK_IsHalted()
T7148 3192:918.272 - 0.572ms returns FALSE
T7148 3192:918.272 JLINK_HasError()
T7148 3192:919.552 JLINK_IsHalted()
T7148 3192:920.320 - 0.559ms returns FALSE
T7148 3192:920.320 JLINK_HasError()
T7148 3192:921.856 JLINK_IsHalted()
T7148 3192:922.368 - 0.576ms returns FALSE
T7148 3192:922.624 JLINK_HasError()
T7148 3192:923.648 JLINK_IsHalted()
T7148 3192:924.416 - 0.532ms returns FALSE
T7148 3192:924.416 JLINK_HasError()
T7148 3192:925.696 JLINK_IsHalted()
T7148 3192:926.720 - 0.704ms returns FALSE
T7148 3192:926.720 JLINK_HasError()
T7148 3192:927.744 JLINK_IsHalted()
T7148 3192:928.512 - 0.541ms returns FALSE
T7148 3192:928.512 JLINK_HasError()
T7148 3192:930.048 JLINK_IsHalted()
T7148 3192:930.560 - 0.560ms returns FALSE
T7148 3192:930.560 JLINK_HasError()
T7148 3192:932.096 JLINK_IsHalted()
T7148 3192:932.864 - 0.577ms returns FALSE
T7148 3192:932.864 JLINK_HasError()
T7148 3192:934.144 JLINK_IsHalted()
T7148 3192:934.912 - 0.554ms returns FALSE
T7148 3192:934.912 JLINK_HasError()
T7148 3192:936.448 JLINK_IsHalted()
T7148 3192:936.960 - 0.599ms returns FALSE
T7148 3192:936.960 JLINK_HasError()
T7148 3192:938.496 JLINK_IsHalted()
T7148 3192:939.008 - 0.536ms returns FALSE
T7148 3192:939.008 JLINK_HasError()
T7148 3192:940.544 JLINK_IsHalted()
T7148 3192:941.056 - 0.522ms returns FALSE
T7148 3192:941.056 JLINK_HasError()
T7148 3192:942.336 JLINK_IsHalted()
T7148 3192:945.664   CPU_ReadMem(2 bytes @ 0x20000000)
T7148 3192:946.176 - 3.871ms returns TRUE
T7148 3192:946.176 JLINK_ReadReg(R15 (PC))
T7148 3192:946.176 - 0.009ms returns 0x20000000
T7148 3192:946.176 JLINK_ClrBPEx(BPHandle = 0x00000005)
T7148 3192:946.176 - 0.008ms returns 0x00
T7148 3192:946.176 JLINK_ReadReg(R0)
T7148 3192:946.176 - 0.008ms returns 0x00000000
T7148 3192:947.200 JLINK_WriteMem(0x20000164, 0x29C Bytes, ...)
T7148 3192:947.200   Data:  09 E0 B0 FB F2 FC B0 FB F2 F3 02 FB 1C 00 30 30 ...
T7148 3192:947.200   CPU_WriteMem(668 bytes @ 0x20000164)
T7148 3192:952.576 - 5.515ms returns 0x29C
T7148 3192:952.576 JLINK_WriteMem(0x20000400, 0x164 Bytes, ...)
T7148 3192:952.832   Data:  46 46 91 69 D2 E9 01 A7 DD F8 38 B0 01 98 88 47 ...
T7148 3192:952.832   CPU_WriteMem(356 bytes @ 0x20000400)
T7148 3192:956.160 - 3.377ms returns 0x164
T7148 3192:956.160 JLINK_HasError()
T7148 3192:956.160 JLINK_WriteReg(R0, 0x08000400)
T7148 3192:956.160 - 0.010ms returns 0
T7148 3192:956.160 JLINK_WriteReg(R1, 0x00000400)
T7148 3192:956.160 - 0.008ms returns 0
T7148 3192:956.160 JLINK_WriteReg(R2, 0x20000164)
T7148 3192:956.160 - 0.008ms returns 0
T7148 3192:956.160 JLINK_WriteReg(R3, 0x00000000)
T7148 3192:956.160 - 0.008ms returns 0
T7148 3192:956.160 JLINK_WriteReg(R4, 0x00000000)
T7148 3192:956.160 - 0.008ms returns 0
T7148 3192:956.416 JLINK_WriteReg(R5, 0x00000000)
T7148 3192:956.416 - 0.007ms returns 0
T7148 3192:956.416 JLINK_WriteReg(R6, 0x00000000)
T7148 3192:956.416 - 0.008ms returns 0
T7148 3192:956.416 JLINK_WriteReg(R7, 0x00000000)
T7148 3192:956.416 - 0.008ms returns 0
T7148 3192:956.416 JLINK_WriteReg(R8, 0x00000000)
T7148 3192:956.416 - 0.008ms returns 0
T7148 3192:956.416 JLINK_WriteReg(R9, 0x20000160)
T7148 3192:956.416 - 0.007ms returns 0
T7148 3192:956.416 JLINK_WriteReg(R10, 0x00000000)
T7148 3192:956.416 - 0.008ms returns 0
T7148 3192:956.416 JLINK_WriteReg(R11, 0x00000000)
T7148 3192:956.416 - 0.008ms returns 0
T7148 3192:956.416 JLINK_WriteReg(R12, 0x00000000)
T7148 3192:956.416 - 0.008ms returns 0
T7148 3192:956.416 JLINK_WriteReg(R13 (SP), 0x20001000)
T7148 3192:956.416 - 0.008ms returns 0
T7148 3192:956.416 JLINK_WriteReg(R14, 0x20000001)
T7148 3192:956.416 - 0.008ms returns 0
T7148 3192:956.416 JLINK_WriteReg(R15 (PC), 0x200000F4)
T7148 3192:956.416 - 0.008ms returns 0
T7148 3192:956.416 JLINK_WriteReg(XPSR, 0x01000000)
T7148 3192:956.416 - 0.008ms returns 0
T7148 3192:956.416 JLINK_WriteReg(MSP, 0x20001000)
T7148 3192:956.416 - 0.015ms returns 0
T7148 3192:956.416 JLINK_WriteReg(PSP, 0x20001000)
T7148 3192:956.416 - 0.008ms returns 0
T7148 3192:956.416 JLINK_WriteReg(CFBP, 0x00000000)
T7148 3192:956.416 - 0.008ms returns 0
T7148 3192:956.416 JLINK_SetBPEx(Addr = 0x20000000, Type = 0xFFFFFFF2)
T7148 3192:956.416 - 0.009ms returns 0x00000006
T7148 3192:956.416 JLINK_Go()
T7148 3192:956.416   CPU_ReadMem(4 bytes @ 0xE0001000)
T7148 3192:959.488 - 3.146ms 
T7148 3192:959.744 JLINK_IsHalted()
T7148 3192:960.256 - 0.599ms returns FALSE
T7148 3192:960.512 JLINK_HasError()
T7148 3192:962.816 JLINK_IsHalted()
T7148 3192:963.584 - 0.611ms returns FALSE
T7148 3192:963.584 JLINK_HasError()
T7148 3192:964.864 JLINK_IsHalted()
T7148 3192:965.632 - 0.580ms returns FALSE
T7148 3192:965.632 JLINK_HasError()
T7148 3192:967.168 JLINK_IsHalted()
T7148 3192:967.680 - 0.616ms returns FALSE
T7148 3192:967.680 JLINK_HasError()
T7148 3192:969.216 JLINK_IsHalted()
T7148 3192:969.728 - 0.575ms returns FALSE
T7148 3192:969.728 JLINK_HasError()
T7148 3192:971.264 JLINK_IsHalted()
T7148 3192:971.776 - 0.633ms returns FALSE
T7148 3192:971.776 JLINK_HasError()
T7148 3192:973.312 JLINK_IsHalted()
T7148 3192:973.824 - 0.675ms returns FALSE
T7148 3192:973.824 JLINK_HasError()
T7148 3192:975.360 JLINK_IsHalted()
T7148 3192:975.872 - 0.583ms returns FALSE
T7148 3192:975.872 JLINK_HasError()
T7148 3192:977.664 JLINK_IsHalted()
T7148 3192:978.176 - 0.613ms returns FALSE
T7148 3192:978.176 JLINK_HasError()
T7148 3192:979.968 JLINK_IsHalted()
T7148 3192:980.480 - 0.596ms returns FALSE
T7148 3192:980.480 JLINK_HasError()
T7148 3192:982.016 JLINK_IsHalted()
T7148 3192:982.528 - 0.589ms returns FALSE
T7148 3192:982.528 JLINK_HasError()
T7148 3192:984.064 JLINK_IsHalted()
T7148 3192:984.832 - 0.563ms returns FALSE
T7148 3192:984.832 JLINK_HasError()
T7148 3192:986.112 JLINK_IsHalted()
T7148 3192:986.880 - 0.547ms returns FALSE
T7148 3192:986.880 JLINK_HasError()
T7148 3192:988.160 JLINK_IsHalted()
T7148 3192:988.928 - 0.553ms returns FALSE
T7148 3192:988.928 JLINK_HasError()
T7148 3192:990.208 JLINK_IsHalted()
T7148 3192:993.280   CPU_ReadMem(2 bytes @ 0x20000000)
T7148 3192:994.304 - 3.853ms returns TRUE
T7148 3192:994.304 JLINK_ReadReg(R15 (PC))
T7148 3192:994.304 - 0.012ms returns 0x20000000
T7148 3192:994.304 JLINK_ClrBPEx(BPHandle = 0x00000006)
T7148 3192:994.304 - 0.010ms returns 0x00
T7148 3192:994.304 JLINK_ReadReg(R0)
T7148 3192:994.304 - 0.010ms returns 0x00000000
T7148 3192:995.072 JLINK_WriteMem(0x20000164, 0x29C Bytes, ...)
T7148 3192:995.328   Data:  01 D9 01 20 10 BD 4F F0 FF 30 10 BD 1A B1 D3 07 ...
T7148 3192:995.328   CPU_WriteMem(668 bytes @ 0x20000164)
T7148 3193:000.704 - 5.655ms returns 0x29C
T7148 3193:000.704 JLINK_WriteMem(0x20000400, 0x164 Bytes, ...)
T7148 3193:000.704   Data:  01 3B 00 2B 00 F8 01 3B F7 D1 11 46 00 F0 C8 FC ...
T7148 3193:000.704   CPU_WriteMem(356 bytes @ 0x20000400)
T7148 3193:004.288 - 3.377ms returns 0x164
T7148 3193:004.288 JLINK_HasError()
T7148 3193:004.288 JLINK_WriteReg(R0, 0x08000800)
T7148 3193:004.288 - 0.009ms returns 0
T7148 3193:004.288 JLINK_WriteReg(R1, 0x00000400)
T7148 3193:004.288 - 0.008ms returns 0
T7148 3193:004.288 JLINK_WriteReg(R2, 0x20000164)
T7148 3193:004.288 - 0.008ms returns 0
T7148 3193:004.288 JLINK_WriteReg(R3, 0x00000000)
T7148 3193:004.288 - 0.008ms returns 0
T7148 3193:004.288 JLINK_WriteReg(R4, 0x00000000)
T7148 3193:004.288 - 0.008ms returns 0
T7148 3193:004.288 JLINK_WriteReg(R5, 0x00000000)
T7148 3193:004.288 - 0.008ms returns 0
T7148 3193:004.288 JLINK_WriteReg(R6, 0x00000000)
T7148 3193:004.288 - 0.008ms returns 0
T7148 3193:004.288 JLINK_WriteReg(R7, 0x00000000)
T7148 3193:004.288 - 0.008ms returns 0
T7148 3193:004.288 JLINK_WriteReg(R8, 0x00000000)
T7148 3193:004.544 - 0.008ms returns 0
T7148 3193:004.544 JLINK_WriteReg(R9, 0x20000160)
T7148 3193:004.544 - 0.008ms returns 0
T7148 3193:004.544 JLINK_WriteReg(R10, 0x00000000)
T7148 3193:004.544 - 0.008ms returns 0
T7148 3193:004.544 JLINK_WriteReg(R11, 0x00000000)
T7148 3193:004.544 - 0.008ms returns 0
T7148 3193:004.544 JLINK_WriteReg(R12, 0x00000000)
T7148 3193:004.544 - 0.008ms returns 0
T7148 3193:004.544 JLINK_WriteReg(R13 (SP), 0x20001000)
T7148 3193:004.544 - 0.008ms returns 0
T7148 3193:004.544 JLINK_WriteReg(R14, 0x20000001)
T7148 3193:004.544 - 0.008ms returns 0
T7148 3193:004.544 JLINK_WriteReg(R15 (PC), 0x200000F4)
T7148 3193:004.544 - 0.008ms returns 0
T7148 3193:004.544 JLINK_WriteReg(XPSR, 0x01000000)
T7148 3193:004.544 - 0.008ms returns 0
T7148 3193:004.544 JLINK_WriteReg(MSP, 0x20001000)
T7148 3193:004.544 - 0.008ms returns 0
T7148 3193:004.544 JLINK_WriteReg(PSP, 0x20001000)
T7148 3193:004.544 - 0.008ms returns 0
T7148 3193:004.544 JLINK_WriteReg(CFBP, 0x00000000)
T7148 3193:004.544 - 0.008ms returns 0
T7148 3193:004.544 JLINK_SetBPEx(Addr = 0x20000000, Type = 0xFFFFFFF2)
T7148 3193:004.544 - 0.009ms returns 0x00000007
T7148 3193:004.544 JLINK_Go()
T7148 3193:004.544   CPU_ReadMem(4 bytes @ 0xE0001000)
T7148 3193:007.616 - 3.226ms 
T7148 3193:007.872 JLINK_IsHalted()
T7148 3193:008.384 - 0.569ms returns FALSE
T7148 3193:008.384 JLINK_HasError()
T7148 3193:010.432 JLINK_IsHalted()
T7148 3193:010.944 - 0.576ms returns FALSE
T7148 3193:010.944 JLINK_HasError()
T7148 3193:012.480 JLINK_IsHalted()
T7148 3193:012.736 - 0.554ms returns FALSE
T7148 3193:012.736 JLINK_HasError()
T7148 3193:014.272 JLINK_IsHalted()
T7148 3193:014.784 - 0.570ms returns FALSE
T7148 3193:014.784 JLINK_HasError()
T7148 3193:016.320 JLINK_IsHalted()
T7148 3193:016.832 - 0.539ms returns FALSE
T7148 3193:016.832 JLINK_HasError()
T7148 3193:018.368 JLINK_IsHalted()
T7148 3193:018.880 - 0.554ms returns FALSE
T7148 3193:018.880 JLINK_HasError()
T7148 3193:020.416 JLINK_IsHalted()
T7148 3193:020.928 - 0.601ms returns FALSE
T7148 3193:020.928 JLINK_HasError()
T7148 3193:022.464 JLINK_IsHalted()
T7148 3193:022.976 - 0.579ms returns FALSE
T7148 3193:022.976 JLINK_HasError()
T7148 3193:024.256 JLINK_IsHalted()
T7148 3193:025.024 - 0.554ms returns FALSE
T7148 3193:025.024 JLINK_HasError()
T7148 3193:026.304 JLINK_IsHalted()
T7148 3193:027.072 - 0.581ms returns FALSE
T7148 3193:027.072 JLINK_HasError()
T7148 3193:028.352 JLINK_IsHalted()
T7148 3193:028.864 - 0.527ms returns FALSE
T7148 3193:029.120 JLINK_HasError()
T7148 3193:030.400 JLINK_IsHalted()
T7148 3193:030.912 - 0.543ms returns FALSE
T7148 3193:030.912 JLINK_HasError()
T7148 3193:032.192 JLINK_IsHalted()
T7148 3193:032.960 - 0.553ms returns FALSE
T7148 3193:032.960 JLINK_HasError()
T7148 3193:034.240 JLINK_IsHalted()
T7148 3193:035.008 - 0.520ms returns FALSE
T7148 3193:035.008 JLINK_HasError()
T7148 3193:036.288 JLINK_IsHalted()
T7148 3193:037.056 - 0.634ms returns FALSE
T7148 3193:037.056 JLINK_HasError()
T7148 3193:038.336 JLINK_IsHalted()
T7148 3193:041.408   CPU_ReadMem(2 bytes @ 0x20000000)
T7148 3193:042.176 - 3.825ms returns TRUE
T7148 3193:042.176 JLINK_ReadReg(R15 (PC))
T7148 3193:042.432 - 0.011ms returns 0x20000000
T7148 3193:042.432 JLINK_ClrBPEx(BPHandle = 0x00000007)
T7148 3193:042.432 - 0.010ms returns 0x00
T7148 3193:042.432 JLINK_ReadReg(R0)
T7148 3193:042.432 - 0.009ms returns 0x00000000
T7148 3193:043.200 JLINK_WriteMem(0x20000164, 0x29C Bytes, ...)
T7148 3193:043.200   Data:  90 47 20 6A 40 1C 20 62 28 1E A5 F1 01 05 F3 DC ...
T7148 3193:043.200   CPU_WriteMem(668 bytes @ 0x20000164)
T7148 3193:048.576 - 5.554ms returns 0x29C
T7148 3193:048.576 JLINK_WriteMem(0x20000400, 0x164 Bytes, ...)
T7148 3193:048.576   Data:  4B 46 00 90 4F F0 00 47 0A AA 01 A9 0C A8 FF F7 ...
T7148 3193:048.576   CPU_WriteMem(356 bytes @ 0x20000400)
T7148 3193:052.160 - 3.372ms returns 0x164
T7148 3193:052.160 JLINK_HasError()
T7148 3193:052.160 JLINK_WriteReg(R0, 0x08000C00)
T7148 3193:052.160 - 0.009ms returns 0
T7148 3193:052.160 JLINK_WriteReg(R1, 0x00000400)
T7148 3193:052.160 - 0.008ms returns 0
T7148 3193:052.160 JLINK_WriteReg(R2, 0x20000164)
T7148 3193:052.160 - 0.008ms returns 0
T7148 3193:052.160 JLINK_WriteReg(R3, 0x00000000)
T7148 3193:052.160 - 0.007ms returns 0
T7148 3193:052.160 JLINK_WriteReg(R4, 0x00000000)
T7148 3193:052.160 - 0.008ms returns 0
T7148 3193:052.160 JLINK_WriteReg(R5, 0x00000000)
T7148 3193:052.160 - 0.008ms returns 0
T7148 3193:052.160 JLINK_WriteReg(R6, 0x00000000)
T7148 3193:052.160 - 0.007ms returns 0
T7148 3193:052.160 JLINK_WriteReg(R7, 0x00000000)
T7148 3193:052.416 - 0.007ms returns 0
T7148 3193:052.416 JLINK_WriteReg(R8, 0x00000000)
T7148 3193:052.416 - 0.008ms returns 0
T7148 3193:052.416 JLINK_WriteReg(R9, 0x20000160)
T7148 3193:052.416 - 0.008ms returns 0
T7148 3193:052.416 JLINK_WriteReg(R10, 0x00000000)
T7148 3193:052.416 - 0.008ms returns 0
T7148 3193:052.416 JLINK_WriteReg(R11, 0x00000000)
T7148 3193:052.416 - 0.008ms returns 0
T7148 3193:052.416 JLINK_WriteReg(R12, 0x00000000)
T7148 3193:052.416 - 0.013ms returns 0
T7148 3193:052.416 JLINK_WriteReg(R13 (SP), 0x20001000)
T7148 3193:052.416 - 0.017ms returns 0
T7148 3193:052.416 JLINK_WriteReg(R14, 0x20000001)
T7148 3193:052.416 - 0.015ms returns 0
T7148 3193:052.416 JLINK_WriteReg(R15 (PC), 0x200000F4)
T7148 3193:052.672 - 0.031ms returns 0
T7148 3193:052.672 JLINK_WriteReg(XPSR, 0x01000000)
T7148 3193:052.672 - 0.014ms returns 0
T7148 3193:052.672 JLINK_WriteReg(MSP, 0x20001000)
T7148 3193:052.672 - 0.017ms returns 0
T7148 3193:052.672 JLINK_WriteReg(PSP, 0x20001000)
T7148 3193:052.672 - 0.016ms returns 0
T7148 3193:052.672 JLINK_WriteReg(CFBP, 0x00000000)
T7148 3193:052.672 - 0.015ms returns 0
T7148 3193:052.672 JLINK_SetBPEx(Addr = 0x20000000, Type = 0xFFFFFFF2)
T7148 3193:052.672 - 0.018ms returns 0x00000008
T7148 3193:052.672 JLINK_Go()
T7148 3193:052.672   CPU_ReadMem(4 bytes @ 0xE0001000)
T7148 3193:055.744 - 3.173ms 
T7148 3193:055.744 JLINK_IsHalted()
T7148 3193:056.512 - 0.544ms returns FALSE
T7148 3193:056.512 JLINK_HasError()
T7148 3193:058.816 JLINK_IsHalted()
T7148 3193:059.328 - 0.695ms returns FALSE
T7148 3193:059.328 JLINK_HasError()
T7148 3193:060.864 JLINK_IsHalted()
T7148 3193:061.376 - 0.590ms returns FALSE
T7148 3193:061.376 JLINK_HasError()
T7148 3193:062.912 JLINK_IsHalted()
T7148 3193:063.680 - 0.602ms returns FALSE
T7148 3193:063.680 JLINK_HasError()
T7148 3193:064.960 JLINK_IsHalted()
T7148 3193:065.728 - 0.586ms returns FALSE
T7148 3193:065.728 JLINK_HasError()
T7148 3193:067.008 JLINK_IsHalted()
T7148 3193:067.520 - 0.528ms returns FALSE
T7148 3193:067.520 JLINK_HasError()
T7148 3193:069.056 JLINK_IsHalted()
T7148 3193:069.568 - 0.605ms returns FALSE
T7148 3193:069.568 JLINK_HasError()
T7148 3193:071.104 JLINK_IsHalted()
T7148 3193:071.616 - 0.590ms returns FALSE
T7148 3193:071.616 JLINK_HasError()
T7148 3193:073.152 JLINK_IsHalted()
T7148 3193:073.920 - 0.624ms returns FALSE
T7148 3193:073.920 JLINK_HasError()
T7148 3193:075.200 JLINK_IsHalted()
T7148 3193:075.968 - 0.525ms returns FALSE
T7148 3193:075.968 JLINK_HasError()
T7148 3193:076.992 JLINK_IsHalted()
T7148 3193:077.504 - 0.553ms returns FALSE
T7148 3193:077.504 JLINK_HasError()
T7148 3193:079.296 JLINK_IsHalted()
T7148 3193:079.808 - 0.586ms returns FALSE
T7148 3193:079.808 JLINK_HasError()
T7148 3193:081.600 JLINK_IsHalted()
T7148 3193:082.368 - 0.623ms returns FALSE
T7148 3193:082.368 JLINK_HasError()
T7148 3193:083.648 JLINK_IsHalted()
T7148 3193:084.672 - 0.958ms returns FALSE
T7148 3193:084.672 JLINK_HasError()
T7148 3193:086.464 JLINK_IsHalted()
T7148 3193:089.792   CPU_ReadMem(2 bytes @ 0x20000000)
T7148 3193:090.560 - 3.881ms returns TRUE
T7148 3193:090.560 JLINK_ReadReg(R15 (PC))
T7148 3193:090.560 - 0.010ms returns 0x20000000
T7148 3193:090.560 JLINK_ClrBPEx(BPHandle = 0x00000008)
T7148 3193:090.560 - 0.009ms returns 0x00
T7148 3193:090.560 JLINK_ReadReg(R0)
T7148 3193:090.560 - 0.008ms returns 0x00000000
T7148 3193:091.328 JLINK_WriteMem(0x20000164, 0x29C Bytes, ...)
T7148 3193:091.584   Data:  00 2E 04 DB B3 45 02 DD 01 A8 80 5D 00 E0 30 20 ...
T7148 3193:091.584   CPU_WriteMem(668 bytes @ 0x20000164)
T7148 3193:096.960 - 5.573ms returns 0x29C
T7148 3193:096.960 JLINK_WriteMem(0x20000400, 0x164 Bytes, ...)
T7148 3193:096.960   Data:  79 44 51 61 04 49 79 44 11 62 00 21 11 61 11 46 ...
T7148 3193:096.960   CPU_WriteMem(356 bytes @ 0x20000400)
T7148 3193:100.288 - 3.396ms returns 0x164
T7148 3193:100.544 JLINK_HasError()
T7148 3193:100.544 JLINK_WriteReg(R0, 0x08001000)
T7148 3193:100.544 - 0.009ms returns 0
T7148 3193:100.544 JLINK_WriteReg(R1, 0x00000400)
T7148 3193:100.544 - 0.007ms returns 0
T7148 3193:100.544 JLINK_WriteReg(R2, 0x20000164)
T7148 3193:100.544 - 0.007ms returns 0
T7148 3193:100.544 JLINK_WriteReg(R3, 0x00000000)
T7148 3193:100.544 - 0.007ms returns 0
T7148 3193:100.544 JLINK_WriteReg(R4, 0x00000000)
T7148 3193:100.544 - 0.007ms returns 0
T7148 3193:100.544 JLINK_WriteReg(R5, 0x00000000)
T7148 3193:100.544 - 0.008ms returns 0
T7148 3193:100.544 JLINK_WriteReg(R6, 0x00000000)
T7148 3193:100.544 - 0.007ms returns 0
T7148 3193:100.544 JLINK_WriteReg(R7, 0x00000000)
T7148 3193:100.544 - 0.007ms returns 0
T7148 3193:100.800 JLINK_WriteReg(R8, 0x00000000)
T7148 3193:100.800 - 0.016ms returns 0
T7148 3193:100.800 JLINK_WriteReg(R9, 0x20000160)
T7148 3193:100.800 - 0.020ms returns 0
T7148 3193:100.800 JLINK_WriteReg(R10, 0x00000000)
T7148 3193:100.800 - 0.008ms returns 0
T7148 3193:100.800 JLINK_WriteReg(R11, 0x00000000)
T7148 3193:100.800 - 0.012ms returns 0
T7148 3193:100.800 JLINK_WriteReg(R12, 0x00000000)
T7148 3193:100.800 - 0.007ms returns 0
T7148 3193:100.800 JLINK_WriteReg(R13 (SP), 0x20001000)
T7148 3193:100.800 - 0.008ms returns 0
T7148 3193:100.800 JLINK_WriteReg(R14, 0x20000001)
T7148 3193:100.800 - 0.007ms returns 0
T7148 3193:100.800 JLINK_WriteReg(R15 (PC), 0x200000F4)
T7148 3193:100.800 - 0.007ms returns 0
T7148 3193:100.800 JLINK_WriteReg(XPSR, 0x01000000)
T7148 3193:100.800 - 0.007ms returns 0
T7148 3193:100.800 JLINK_WriteReg(MSP, 0x20001000)
T7148 3193:100.800 - 0.007ms returns 0
T7148 3193:100.800 JLINK_WriteReg(PSP, 0x20001000)
T7148 3193:100.800 - 0.007ms returns 0
T7148 3193:100.800 JLINK_WriteReg(CFBP, 0x00000000)
T7148 3193:100.800 - 0.007ms returns 0
T7148 3193:100.800 JLINK_SetBPEx(Addr = 0x20000000, Type = 0xFFFFFFF2)
T7148 3193:100.800 - 0.009ms returns 0x00000009
T7148 3193:100.800 JLINK_Go()
T7148 3193:100.800   CPU_ReadMem(4 bytes @ 0xE0001000)
T7148 3193:103.872 - 3.117ms 
T7148 3193:104.128 JLINK_IsHalted()
T7148 3193:104.640 - 0.531ms returns FALSE
T7148 3193:104.640 JLINK_HasError()
T7148 3193:105.920 JLINK_IsHalted()
T7148 3193:106.688 - 0.597ms returns FALSE
T7148 3193:106.688 JLINK_HasError()
T7148 3193:108.224 JLINK_IsHalted()
T7148 3193:108.992 - 0.591ms returns FALSE
T7148 3193:108.992 JLINK_HasError()
T7148 3193:110.272 JLINK_IsHalted()
T7148 3193:111.040 - 0.602ms returns FALSE
T7148 3193:111.040 JLINK_HasError()
T7148 3193:112.576 JLINK_IsHalted()
T7148 3193:113.088 - 0.583ms returns FALSE
T7148 3193:113.088 JLINK_HasError()
T7148 3193:114.368 JLINK_IsHalted()
T7148 3193:115.136 - 0.518ms returns FALSE
T7148 3193:115.136 JLINK_HasError()
T7148 3193:116.416 JLINK_IsHalted()
T7148 3193:117.184 - 0.590ms returns FALSE
T7148 3193:117.184 JLINK_HasError()
T7148 3193:119.744 JLINK_IsHalted()
T7148 3193:120.256 - 0.580ms returns FALSE
T7148 3193:120.256 JLINK_HasError()
T7148 3193:122.048 JLINK_IsHalted()
T7148 3193:122.560 - 0.625ms returns FALSE
T7148 3193:122.560 JLINK_HasError()
T7148 3193:124.096 JLINK_IsHalted()
T7148 3193:124.608 - 0.549ms returns FALSE
T7148 3193:124.608 JLINK_HasError()
T7148 3193:126.400 JLINK_IsHalted()
T7148 3193:126.912 - 0.593ms returns FALSE
T7148 3193:126.912 JLINK_HasError()
T7148 3193:128.448 JLINK_IsHalted()
T7148 3193:128.960 - 0.555ms returns FALSE
T7148 3193:128.960 JLINK_HasError()
T7148 3193:130.496 JLINK_IsHalted()
T7148 3193:130.752 - 0.565ms returns FALSE
T7148 3193:131.008 JLINK_HasError()
T7148 3193:132.544 JLINK_IsHalted()
T7148 3193:132.800 - 0.584ms returns FALSE
T7148 3193:132.800 JLINK_HasError()
T7148 3193:134.592 JLINK_IsHalted()
T7148 3193:138.176   CPU_ReadMem(2 bytes @ 0x20000000)
T7148 3193:138.688 - 4.077ms returns TRUE
T7148 3193:138.688 JLINK_ReadReg(R15 (PC))
T7148 3193:138.688 - 0.010ms returns 0x20000000
T7148 3193:138.688 JLINK_ClrBPEx(BPHandle = 0x00000009)
T7148 3193:138.688 - 0.009ms returns 0x00
T7148 3193:138.688 JLINK_ReadReg(R0)
T7148 3193:138.688 - 0.008ms returns 0x00000000
T7148 3193:139.712 JLINK_WriteMem(0x20000164, 0x29C Bytes, ...)
T7148 3193:139.712   Data:  08 46 00 E0 20 46 28 60 04 98 00 28 0D D0 00 2A ...
T7148 3193:139.712   CPU_WriteMem(668 bytes @ 0x20000164)
T7148 3193:145.344 - 5.625ms returns 0x29C
T7148 3193:145.344 JLINK_WriteMem(0x20000400, 0x164 Bytes, ...)
T7148 3193:145.344   Data:  6D 1E 02 F8 08 30 05 29 08 F1 01 08 01 DA 00 2D ...
T7148 3193:145.344   CPU_WriteMem(356 bytes @ 0x20000400)
T7148 3193:148.928 - 3.361ms returns 0x164
T7148 3193:148.928 JLINK_HasError()
T7148 3193:148.928 JLINK_WriteReg(R0, 0x08001400)
T7148 3193:148.928 - 0.009ms returns 0
T7148 3193:148.928 JLINK_WriteReg(R1, 0x00000400)
T7148 3193:148.928 - 0.007ms returns 0
T7148 3193:148.928 JLINK_WriteReg(R2, 0x20000164)
T7148 3193:148.928 - 0.013ms returns 0
T7148 3193:148.928 JLINK_WriteReg(R3, 0x00000000)
T7148 3193:148.928 - 0.007ms returns 0
T7148 3193:148.928 JLINK_WriteReg(R4, 0x00000000)
T7148 3193:148.928 - 0.007ms returns 0
T7148 3193:148.928 JLINK_WriteReg(R5, 0x00000000)
T7148 3193:148.928 - 0.007ms returns 0
T7148 3193:148.928 JLINK_WriteReg(R6, 0x00000000)
T7148 3193:148.928 - 0.007ms returns 0
T7148 3193:148.928 JLINK_WriteReg(R7, 0x00000000)
T7148 3193:148.928 - 0.007ms returns 0
T7148 3193:148.928 JLINK_WriteReg(R8, 0x00000000)
T7148 3193:148.928 - 0.007ms returns 0
T7148 3193:148.928 JLINK_WriteReg(R9, 0x20000160)
T7148 3193:148.928 - 0.007ms returns 0
T7148 3193:148.928 JLINK_WriteReg(R10, 0x00000000)
T7148 3193:148.928 - 0.007ms returns 0
T7148 3193:148.928 JLINK_WriteReg(R11, 0x00000000)
T7148 3193:148.928 - 0.007ms returns 0
T7148 3193:148.928 JLINK_WriteReg(R12, 0x00000000)
T7148 3193:148.928 - 0.007ms returns 0
T7148 3193:148.928 JLINK_WriteReg(R13 (SP), 0x20001000)
T7148 3193:148.928 - 0.008ms returns 0
T7148 3193:148.928 JLINK_WriteReg(R14, 0x20000001)
T7148 3193:148.928 - 0.007ms returns 0
T7148 3193:148.928 JLINK_WriteReg(R15 (PC), 0x200000F4)
T7148 3193:148.928 - 0.007ms returns 0
T7148 3193:148.928 JLINK_WriteReg(XPSR, 0x01000000)
T7148 3193:148.928 - 0.008ms returns 0
T7148 3193:148.928 JLINK_WriteReg(MSP, 0x20001000)
T7148 3193:148.928 - 0.007ms returns 0
T7148 3193:148.928 JLINK_WriteReg(PSP, 0x20001000)
T7148 3193:148.928 - 0.007ms returns 0
T7148 3193:148.928 JLINK_WriteReg(CFBP, 0x00000000)
T7148 3193:149.184 - 0.007ms returns 0
T7148 3193:149.184 JLINK_SetBPEx(Addr = 0x20000000, Type = 0xFFFFFFF2)
T7148 3193:149.184 - 0.009ms returns 0x0000000A
T7148 3193:149.184 JLINK_Go()
T7148 3193:149.184   CPU_ReadMem(4 bytes @ 0xE0001000)
T7148 3193:152.000 - 3.034ms 
T7148 3193:152.256 JLINK_IsHalted()
